
T1258 000:331 SEGGER J-Link V4.40c Log File (0000ms, 0331ms total)
T1258 000:331 DLL Compiled: Jan 24 2012 09:30:33 (0000ms, 0331ms total)
T1258 000:331 Logging started @ 2021-04-27 13:45 (0000ms, 0331ms total)
T1258 000:331 JLINK_SetWarnOutHandler(...) (0000ms, 0331ms total)
T1258 000:331 JLINK_OpenEx(...)
Firmware: J-Link ARM-OB STM32 compiled Aug 22 2012 19:52:04
Hardware: V7.00
S/N: 20090931
Feature(s): RDI,FlashDL,FlashBP,JFlash,GDBFull  returns O.K. (0108ms, 0331ms total)
T1258 000:439 JLINK_SetErrorOutHandler(...) (0000ms, 0439ms total)
T1258 000:439 JLINK_ExecCommand("Device = Cortex-M3", ...)  returns 0x00 (0000ms, 0439ms total)
T1258 000:439 JLINK_ExecCommand("ProjectFile = "G:\AisinoChip\ach512release\ModulesDemo\spi\spi_master\demo\JLinkSettings.ini"", ...)  returns 0x00 (0001ms, 0439ms total)
T1258 000:440 JLINK_ExecCommand("DisableConnectionTimeout", ...)  returns 0x00 (0000ms, 0440ms total)
T1258 000:441 JLINK_TIF_Select(JLINKARM_TIF_SWD)  returns 0x00 (0001ms, 0440ms total)
T1258 000:442 JLINK_SetSpeed(2000) (0000ms, 0441ms total)
T1258 000:442 JLINK_GetHardwareVersion()  returns 0x11170 (0000ms, 0441ms total)
T1258 000:442 JLINK_GetDLLVersion()  returns 44003 (0000ms, 0441ms total)
T1258 000:442 JLINK_GetFirmwareString(...) (0000ms, 0441ms total)
T1258 000:442 JLINK_GetDLLVersion()  returns 44003 (0000ms, 0441ms total)
T1258 000:442 JLINK_GetCompileDateTime() (0000ms, 0441ms total)
T1258 000:442 JLINK_GetFirmwareString(...) (0000ms, 0441ms total)
T1258 000:442 JLINK_GetHardwareVersion()  returns 0x11170 (0000ms, 0441ms total)
T1258 000:443 JLINK_GetId() >0x108 TIF>Found SWD-DP with ID 0x2BA01477 >0x33 TIF> >0x33 TIF> >0x35 TIF> >0x33 TIF> >0x35 TIF> >0x33 TIF> >0x33 TIF> >0x35 TIF> >0x33 TIF> >0x33 TIF> >0x35 TIF> >0x33 TIF> >0x33 TIF> >0x35 TIF> >0x33 TIF> >0x33 TIF> >0x35 TIF> >0x35 TIF> >0x35 TIF> >0x35 TIF> >0x35 TIF> >0x33 TIF> >0x33 TIF> >0x35 TIF> >0x33 TIF> >0x33 TIF> >0x33 TIF>TPIU fitted. >0x35 TIF> >0x33 TIF> >0x33 TIF> >0x35 TIF> >0x33 TIF> >0x33 TIF>  FPUnit: 6 code (BP) slots and 2 literal slots >0x35 TIF>
 >0x33 TIF> >0x33 TIF> >0x35 TIF> >0x33 TIF> >0x33 TIF> >0x35 TIF> >0x33 TIF> >0x33 TIF> >0x35 TIF> >0x33 TIF> >0x33 TIF>Found Cortex-M3 r2p0, Little endian. >0x33 TIF>  returns 0x2BA01477 (0019ms, 0441ms total)
T1258 000:462 JLINK_GetDebugInfo(0x100) -- Value=0xE00FF003  returns 0x00 (0000ms, 0460ms total)
T1258 000:462 JLINK_ReadMem (0xE00FFFF0, 0x0010 Bytes, ...) -- CPU is running -- CPU_ReadMem(16 bytes @ 0xE00FFFF0) -- Data:  0D 00 00 00 10 00 00 00 05 00 00 00 B1 00 00 00  returns 0x00 (0001ms, 0460ms total)
T1258 000:463 JLINK_ReadMem (0xE00FFFD0, 0x0020 Bytes, ...) -- CPU is running -- CPU_ReadMem(32 bytes @ 0xE00FFFD0) -- Data:  00 00 00 00 00 00 00 00 00 00 00 00 00 00 00 00 ...  returns 0x00 (0001ms, 0461ms total)
T1258 000:464 JLINK_ReadMem (0xE00FF000, 0x0018 Bytes, ...) -- CPU is running -- CPU_ReadMem(24 bytes @ 0xE00FF000) -- Data:  03 F0 F0 FF 03 20 F0 FF 03 30 F0 FF 03 10 F0 FF ...  returns 0x00 (0000ms, 0462ms total)
T1258 000:464 JLINK_ReadMemU32(0xE000ED00, 0x0001 Items, ...) -- CPU is running -- CPU_ReadMem(4 bytes @ 0xE000ED00) -- Data:  30 C2 2F 41  returns 0x01 (0001ms, 0462ms total)
T1258 000:465 JLINK_SetResetType(JLINKARM_RESET_TYPE_NORMAL)  returns JLINKARM_RESET_TYPE_NORMAL (0000ms, 0463ms total)
T1258 000:465 JLINK_Reset() >0x108 TIF>Found SWD-DP with ID 0x2BA01477 >0x33 TIF> >0x33 TIF> >0x35 TIF> >0x33 TIF> >0x35 TIF> >0x33 TIF> >0x33 TIF> >0x35 TIF> >0x33 TIF> >0x33 TIF> >0x35 TIF> >0x33 TIF> >0x33 TIF> >0x35 TIF> >0x33 TIF> >0x33 TIF> >0x35 TIF> >0x35 TIF> >0x35 TIF> >0x35 TIF> >0x35 TIF> >0x33 TIF> >0x33 TIF> >0x35 TIF> >0x33 TIF> >0x33 TIF> >0x33 TIF>TPIU fitted. >0x35 TIF> >0x33 TIF> >0x33 TIF> >0x35 TIF> >0x33 TIF> >0x33 TIF>  FPUnit: 6 code (BP) slots and 2 literal slots >0x35 TIF>
 >0x33 TIF> >0x33 TIF> >0x35 TIF> >0x33 TIF> >0x33 TIF> >0x35 TIF> >0x33 TIF> >0x33 TIF> >0x35 TIF> >0x33 TIF> >0x33 TIF>Found Cortex-M3 r2p0, Little endian. -- CPU is running -- CPU_WriteMem(4 bytes @ 0xE000EDF0) -- CPU is running -- CPU_WriteMem(4 bytes @ 0xE000EDFC) >0x35 TIF> -- CPU is running -- CPU_WriteMem(4 bytes @ 0xE000ED0C) -- CPU is running -- CPU_ReadMem(4 bytes @ 0xE000EDF0) -- CPU is running -- CPU_ReadMem(4 bytes @ 0xE000EDF0) -- CPU is running -- CPU_WriteMem(4 bytes @ 0xE000EDF0)
 -- CPU is running -- CPU_WriteMem(4 bytes @ 0xE000EDFC) -- CPU is running -- CPU_ReadMem(4 bytes @ 0xE000EDF0) (0035ms, 0463ms total)
T1258 000:500 JLINK_ReadReg(R15)  returns 0x00000170 (0000ms, 0498ms total)
T1258 000:500 JLINK_ReadReg(XPSR)  returns 0x01000000 (0000ms, 0498ms total)
T1258 000:500 JLINK_Halt()  returns 0x00 (0000ms, 0498ms total)
T1258 000:500 JLINK_IsHalted()  returns TRUE (0000ms, 0498ms total)
T1258 000:500 JLINK_ReadMemU32(0xE000EDF0, 0x0001 Items, ...) -- CPU_ReadMem(4 bytes @ 0xE000EDF0) -- Data:  03 00 03 00  returns 0x01 (0000ms, 0498ms total)
T1258 000:500 JLINK_WriteU32(0xE000EDF0, 0xA05F0003) -- CPU_WriteMem(4 bytes @ 0xE000EDF0)  returns 0x00 (0001ms, 0498ms total)
T1258 000:501 JLINK_WriteU32(0xE000EDFC, 0x01000000) -- CPU_WriteMem(4 bytes @ 0xE000EDFC)  returns 0x00 (0001ms, 0499ms total)
T1258 000:502 JLINK_GetHWStatus(...)  returns 0x00 (0000ms, 0500ms total)
T1258 000:502 JLINK_GetNumBPUnits(Type = 0xFFFFFF00)  returns 0x06 (0000ms, 0500ms total)
T1258 000:502 JLINK_GetNumBPUnits(Type = 0xF0)  returns 0x2000 (0000ms, 0500ms total)
T1258 000:502 JLINK_GetNumWPUnits()  returns 0x04 (0000ms, 0500ms total)
T1258 000:502 JLINK_GetSpeed()  returns 0x7D0 (0000ms, 0500ms total)
T1258 000:503 JLINK_ReadMemU32(0xE000E004, 0x0001 Items, ...) -- CPU_ReadMem(4 bytes @ 0xE000E004) -- Data:  00 00 00 00  returns 0x01 (0000ms, 0500ms total)
T1258 000:503 JLINK_ReadMemU32(0xE000E004, 0x0001 Items, ...) -- CPU_ReadMem(4 bytes @ 0xE000E004) -- Data:  00 00 00 00  returns 0x01 (0001ms, 0500ms total)
T1258 000:504 JLINK_WriteMem(0xE0001000, 0x001C Bytes, ...) -- Data:  01 00 00 00 00 00 00 00 00 00 00 00 00 00 00 00 ... -- CPU_WriteMem(28 bytes @ 0xE0001000)  returns 0x1C (0001ms, 0501ms total)
T1258 000:505 JLINK_ReadMem (0xE0001000, 0x001C Bytes, ...) -- CPU_ReadMem(28 bytes @ 0xE0001000) -- Data:  01 00 00 40 00 00 00 00 00 00 00 00 00 00 00 00 ...  returns 0x00 (0001ms, 0502ms total)
T1258 000:506 JLINK_ReadReg(R15)  returns 0x00000170 (0000ms, 0503ms total)
T1258 000:506 JLINK_ReadReg(XPSR)  returns 0x01000000 (0000ms, 0503ms total)
T1258 000:563 JLINK_SetResetType(JLINKARM_RESET_TYPE_NORMAL)  returns JLINKARM_RESET_TYPE_NORMAL (0000ms, 0503ms total)
T1258 000:563 JLINK_Reset() >0x108 TIF>Found SWD-DP with ID 0x2BA01477 >0x33 TIF> >0x33 TIF> >0x35 TIF> >0x33 TIF> >0x35 TIF> >0x33 TIF> >0x33 TIF> >0x35 TIF> >0x33 TIF> >0x33 TIF> >0x35 TIF> >0x33 TIF> >0x33 TIF> >0x35 TIF> >0x33 TIF> >0x33 TIF> >0x35 TIF> >0x35 TIF> >0x35 TIF> >0x35 TIF> >0x35 TIF> >0x33 TIF> >0x33 TIF> >0x35 TIF> >0x33 TIF> >0x33 TIF> >0x33 TIF>TPIU fitted. >0x35 TIF> >0x33 TIF> >0x33 TIF> >0x35 TIF> >0x33 TIF> >0x33 TIF>  FPUnit: 6 code (BP) slots and 2 literal slots >0x35 TIF>
 >0x33 TIF> >0x33 TIF> >0x35 TIF> >0x33 TIF> >0x33 TIF> >0x35 TIF> >0x33 TIF> >0x33 TIF> >0x35 TIF> >0x33 TIF> >0x33 TIF>Found Cortex-M3 r2p0, Little endian. -- CPU_WriteMem(4 bytes @ 0xE000EDF0) -- CPU_WriteMem(4 bytes @ 0xE000EDFC) >0x35 TIF> -- CPU_WriteMem(4 bytes @ 0xE000ED0C) -- CPU_ReadMem(4 bytes @ 0xE000EDF0) -- CPU_ReadMem(4 bytes @ 0xE000EDF0) -- CPU_WriteMem(4 bytes @ 0xE000EDF0) -- CPU_WriteMem(4 bytes @ 0xE000EDFC) -- CPU is running -- CPU_ReadMem(4 bytes @ 0xE000EDF0)
 (0034ms, 0503ms total)
T1258 000:597 JLINK_ReadReg(R15)  returns 0x00000170 (0000ms, 0537ms total)
T1258 000:597 JLINK_ReadReg(XPSR)  returns 0x01000000 (0000ms, 0537ms total)
T1258 000:597 JLINK_ReadMemU32(0xE0001004, 0x0001 Items, ...) -- CPU_ReadMem(4 bytes @ 0xE0001004) -- Data:  01 00 00 40  returns 0x01 (0001ms, 0537ms total)
T1258 000:598 JLINK_ReadMem (0x00000170, 0x003C Bytes, ...) -- CPU_ReadMem(60 bytes @ 0x00000170) -- Data:  08 48 00 47 FE E7 FE E7 FE E7 FE E7 FE E7 FE E7 ...  returns 0x00 (0001ms, 0538ms total)
T1258 001:082 JLINK_ReadMem (0x00000B50, 0x003C Bytes, ...) -- CPU_ReadMem(60 bytes @ 0x00000B50) -- Data:  FF F7 5B FD 4F F4 E1 31 00 20 FF F7 EB FD 00 F0 ...  returns 0x00 (0001ms, 0539ms total)
T204C 001:194 JLINK_SetBPEx(Addr = 0x00000B50, Type = 0xFFFFFFF2)  returns 0x00000001 (0000ms, 0540ms total)
T204C 001:194 JLINK_SetBPEx(Addr = 0x0000091E, Type = 0xFFFFFFF2)  returns 0x00000002 (0000ms, 0540ms total)
T204C 001:194 JLINK_Go() -- CPU_WriteMem(4 bytes @ 0xE0002000) -- CPU_WriteMem(4 bytes @ 0xE0002008) -- CPU_WriteMem(4 bytes @ 0xE000200C) -- CPU_WriteMem(4 bytes @ 0xE0002010) -- CPU_WriteMem(4 bytes @ 0xE0002014) -- CPU_WriteMem(4 bytes @ 0xE0002018) -- CPU_WriteMem(4 bytes @ 0xE000201C) (0006ms, 0540ms total)
T204C 001:300 JLINK_IsHalted()  returns TRUE (0003ms, 0546ms total)
T204C 001:303 JLINK_Halt()  returns 0x00 (0001ms, 0546ms total)
T204C 001:304 JLINK_IsHalted()  returns TRUE (0000ms, 0547ms total)
T204C 001:304 JLINK_IsHalted()  returns TRUE (0000ms, 0547ms total)
T204C 001:304 JLINK_IsHalted()  returns TRUE (0000ms, 0547ms total)
T204C 001:304 JLINK_ReadReg(R15)  returns 0x00000B50 (0000ms, 0547ms total)
T204C 001:304 JLINK_ReadReg(XPSR)  returns 0x21000000 (0000ms, 0547ms total)
T204C 001:304 JLINK_ClrBPEx(BPHandle = 0x00000001)  returns 0x00 (0000ms, 0547ms total)
T204C 001:304 JLINK_ClrBPEx(BPHandle = 0x00000002)  returns 0x00 (0000ms, 0547ms total)
T204C 001:304 JLINK_ReadMemU32(0xE000ED30, 0x0001 Items, ...) -- CPU_ReadMem(4 bytes @ 0xE000ED30) -- Data:  03 00 00 00  returns 0x01 (0000ms, 0547ms total)
T204C 001:304 JLINK_ReadMemU32(0xE0001028, 0x0001 Items, ...) -- CPU_ReadMem(4 bytes @ 0xE0001028) -- Data:  01 00 00 40  returns 0x01 (0001ms, 0547ms total)
T204C 001:305 JLINK_ReadMemU32(0xE0001038, 0x0001 Items, ...) -- CPU_ReadMem(4 bytes @ 0xE0001038) -- Data:  01 00 00 40  returns 0x01 (0001ms, 0548ms total)
T204C 001:306 JLINK_ReadMemU32(0xE0001048, 0x0001 Items, ...) -- CPU_ReadMem(4 bytes @ 0xE0001048) -- Data:  01 00 00 40  returns 0x01 (0000ms, 0549ms total)
T204C 001:306 JLINK_ReadMemU32(0xE0001058, 0x0001 Items, ...) -- CPU_ReadMem(4 bytes @ 0xE0001058) -- Data:  01 00 00 40  returns 0x01 (0001ms, 0549ms total)
T204C 001:307 JLINK_ReadReg(R0)  returns 0x200004D8 (0000ms, 0550ms total)
T204C 001:307 JLINK_ReadReg(R1)  returns 0x200004D8 (0000ms, 0550ms total)
T204C 001:307 JLINK_ReadReg(R2)  returns 0x200004D8 (0000ms, 0550ms total)
T204C 001:307 JLINK_ReadReg(R3)  returns 0x200004D8 (0000ms, 0550ms total)
T204C 001:307 JLINK_ReadReg(R4)  returns 0x00000000 (0000ms, 0550ms total)
T204C 001:307 JLINK_ReadReg(R5)  returns 0x20000478 (0000ms, 0550ms total)
T204C 001:307 JLINK_ReadReg(R6)  returns 0x00000000 (0000ms, 0550ms total)
T204C 001:307 JLINK_ReadReg(R7)  returns 0x00000000 (0000ms, 0550ms total)
T204C 001:307 JLINK_ReadReg(R8)  returns 0x00000000 (0000ms, 0550ms total)
T204C 001:307 JLINK_ReadReg(R9)  returns 0x00000000 (0000ms, 0550ms total)
T204C 001:307 JLINK_ReadReg(R10)  returns 0x000011F0 (0000ms, 0550ms total)
T204C 001:307 JLINK_ReadReg(R11)  returns 0x00000000 (0000ms, 0550ms total)
T204C 001:307 JLINK_ReadReg(R12)  returns 0x200004B8 (0000ms, 0550ms total)
T204C 001:307 JLINK_ReadReg(R13)  returns 0x20000CD8 (0000ms, 0550ms total)
T204C 001:307 JLINK_ReadReg(R14)  returns 0x0000015F (0000ms, 0550ms total)
T204C 001:307 JLINK_ReadReg(R15)  returns 0x00000B50 (0000ms, 0550ms total)
T204C 001:307 JLINK_ReadReg(XPSR)  returns 0x21000000 (0000ms, 0550ms total)
T204C 001:307 JLINK_ReadReg(MSP)  returns 0x20000CD8 (0000ms, 0550ms total)
T204C 001:307 JLINK_ReadReg(PSP)  returns 0x00000000 (0000ms, 0550ms total)
T204C 001:307 JLINK_ReadReg(CFBP)  returns 0x00000000 (0000ms, 0550ms total)
T1258 001:309 JLINK_ReadMemU32(0xE0001004, 0x0001 Items, ...) -- CPU_ReadMem(4 bytes @ 0xE0001004) -- Data:  01 00 00 40  returns 0x01 (0001ms, 0550ms total)
T204C 002:334 JLINK_SetBPEx(Addr = 0x0000091E, Type = 0xFFFFFFF2)  returns 0x00000003 (0001ms, 0551ms total)
T204C 002:335 JLINK_Go() -- CPU_WriteMem(4 bytes @ 0xE000200C) -- CPU_WriteMem(4 bytes @ 0xE0002008) -- CPU_WriteMem(4 bytes @ 0xE0002008) -- CPU_WriteMem(4 bytes @ 0xE000200C) -- CPU_WriteMem(4 bytes @ 0xE0002010) -- CPU_WriteMem(4 bytes @ 0xE0002014) -- CPU_WriteMem(4 bytes @ 0xE0002018) -- CPU_WriteMem(4 bytes @ 0xE000201C) (0006ms, 0552ms total)
T204C 002:441 JLINK_IsHalted()  returns TRUE (0003ms, 0558ms total)
T204C 002:444 JLINK_Halt()  returns 0x00 (0000ms, 0558ms total)
T204C 002:444 JLINK_IsHalted()  returns TRUE (0000ms, 0558ms total)
T204C 002:444 JLINK_IsHalted()  returns TRUE (0000ms, 0558ms total)
T204C 002:444 JLINK_IsHalted()  returns TRUE (0000ms, 0558ms total)
T204C 002:444 JLINK_ReadReg(R15)  returns 0x0000091E (0000ms, 0558ms total)
T204C 002:444 JLINK_ReadReg(XPSR)  returns 0x41000000 (0001ms, 0558ms total)
T204C 002:445 JLINK_ClrBPEx(BPHandle = 0x00000003)  returns 0x00 (0000ms, 0559ms total)
T204C 002:445 JLINK_ReadMemU32(0xE000ED30, 0x0001 Items, ...) -- CPU_ReadMem(4 bytes @ 0xE000ED30) -- Data:  03 00 00 00  returns 0x01 (0000ms, 0559ms total)
T204C 002:445 JLINK_ReadMemU32(0xE0001028, 0x0001 Items, ...) -- CPU_ReadMem(4 bytes @ 0xE0001028) -- Data:  01 00 00 40  returns 0x01 (0001ms, 0559ms total)
T204C 002:446 JLINK_ReadMemU32(0xE0001038, 0x0001 Items, ...) -- CPU_ReadMem(4 bytes @ 0xE0001038) -- Data:  01 00 00 40  returns 0x01 (0001ms, 0560ms total)
T204C 002:447 JLINK_ReadMemU32(0xE0001048, 0x0001 Items, ...) -- CPU_ReadMem(4 bytes @ 0xE0001048) -- Data:  01 00 00 40  returns 0x01 (0000ms, 0561ms total)
T204C 002:447 JLINK_ReadMemU32(0xE0001058, 0x0001 Items, ...) -- CPU_ReadMem(4 bytes @ 0xE0001058) -- Data:  01 00 00 40  returns 0x01 (0001ms, 0561ms total)
T204C 002:448 JLINK_ReadReg(R0)  returns 0x40060000 (0000ms, 0562ms total)
T204C 002:448 JLINK_ReadReg(R1)  returns 0x40060000 (0000ms, 0562ms total)
T204C 002:448 JLINK_ReadReg(R2)  returns 0x00000000 (0000ms, 0562ms total)
T204C 002:448 JLINK_ReadReg(R3)  returns 0x01555555 (0000ms, 0562ms total)
T204C 002:448 JLINK_ReadReg(R4)  returns 0x00000001 (0000ms, 0562ms total)
T204C 002:448 JLINK_ReadReg(R5)  returns 0x20000478 (0000ms, 0562ms total)
T204C 002:448 JLINK_ReadReg(R6)  returns 0x00000000 (0000ms, 0562ms total)
T204C 002:448 JLINK_ReadReg(R7)  returns 0x00000000 (0000ms, 0562ms total)
T204C 002:448 JLINK_ReadReg(R8)  returns 0x00000000 (0000ms, 0562ms total)
T204C 002:448 JLINK_ReadReg(R9)  returns 0x00000000 (0000ms, 0562ms total)
T204C 002:448 JLINK_ReadReg(R10)  returns 0x000011F0 (0000ms, 0562ms total)
T204C 002:448 JLINK_ReadReg(R11)  returns 0x00000000 (0000ms, 0562ms total)
T204C 002:448 JLINK_ReadReg(R12)  returns 0x00005550 (0000ms, 0562ms total)
T204C 002:448 JLINK_ReadReg(R13)  returns 0x20000CAC (0000ms, 0562ms total)
T204C 002:448 JLINK_ReadReg(R14)  returns 0x00000B77 (0000ms, 0562ms total)
T204C 002:448 JLINK_ReadReg(R15)  returns 0x0000091E (0000ms, 0562ms total)
T204C 002:448 JLINK_ReadReg(XPSR)  returns 0x41000000 (0000ms, 0562ms total)
T204C 002:448 JLINK_ReadReg(MSP)  returns 0x20000CAC (0000ms, 0562ms total)
T204C 002:448 JLINK_ReadReg(PSP)  returns 0x00000000 (0000ms, 0562ms total)
T204C 002:448 JLINK_ReadReg(CFBP)  returns 0x00000000 (0000ms, 0562ms total)
T1258 002:449 JLINK_ReadMem (0x20000CAC, 0x0004 Bytes, ...) -- CPU_ReadMem(4 bytes @ 0x20000CAC) -- Data:  00 00 00 00  returns 0x00 (0000ms, 0562ms total)
T1258 002:449 JLINK_ReadMem (0x20000CD4, 0x0004 Bytes, ...) -- CPU_ReadMem(4 bytes @ 0x20000CD4) -- Data:  63 0B 00 00  returns 0x00 (0001ms, 0562ms total)
T1258 002:450 JLINK_ReadMem (0x20000CB0, 0x0004 Bytes, ...) -- CPU_ReadMem(4 bytes @ 0x20000CB0) -- Data:  00 00 00 00  returns 0x00 (0001ms, 0563ms total)
T1258 002:451 JLINK_ReadMem (0x20000CB4, 0x0004 Bytes, ...) -- CPU_ReadMem(4 bytes @ 0x20000CB4) -- Data:  78 04 00 20  returns 0x00 (0001ms, 0564ms total)
T1258 002:452 JLINK_ReadMem (0x20000CB8, 0x0004 Bytes, ...) -- CPU_ReadMem(4 bytes @ 0x20000CB8) -- Data:  00 00 00 00  returns 0x00 (0000ms, 0565ms total)
T1258 002:452 JLINK_ReadMem (0x20000CBC, 0x0004 Bytes, ...) -- CPU_ReadMem(4 bytes @ 0x20000CBC) -- Data:  00 00 00 00  returns 0x00 (0001ms, 0565ms total)
T1258 002:453 JLINK_ReadMem (0x20000CC0, 0x0004 Bytes, ...) -- CPU_ReadMem(4 bytes @ 0x20000CC0) -- Data:  00 00 00 00  returns 0x00 (0001ms, 0566ms total)
T1258 002:454 JLINK_ReadMem (0x20000CC4, 0x0004 Bytes, ...) -- CPU_ReadMem(4 bytes @ 0x20000CC4) -- Data:  00 00 00 00  returns 0x00 (0000ms, 0567ms total)
T1258 002:454 JLINK_ReadMem (0x20000CC8, 0x0004 Bytes, ...) -- CPU_ReadMem(4 bytes @ 0x20000CC8) -- Data:  F0 11 00 00  returns 0x00 (0001ms, 0567ms total)
T1258 002:455 JLINK_ReadMem (0x20000CCC, 0x0004 Bytes, ...) -- CPU_ReadMem(4 bytes @ 0x20000CCC) -- Data:  00 00 00 00  returns 0x00 (0000ms, 0568ms total)
T1258 002:455 JLINK_ReadMem (0x00000000, 0x0001 Bytes, ...) -- CPU_ReadMem(64 bytes @ 0x00000000) -- Updating DA cache (64 bytes @ 0x00000000) -- Read from DA cache (1 bytes @ 0x00000000) -- Data:  D8  returns 0x00 (0002ms, 0568ms total)
T1258 002:457 JLINK_ReadMem (0x00000000, 0x0004 Bytes, ...) -- Read from DA cache (4 bytes @ 0x00000000) -- Data:  D8 0C 00 20  returns 0x00 (0000ms, 0570ms total)
T1258 002:461 JLINK_ReadMemU32(0xE0001004, 0x0001 Items, ...) -- CPU_ReadMem(4 bytes @ 0xE0001004) -- Data:  01 00 00 40  returns 0x01 (0001ms, 0570ms total)
T1258 002:465 JLINK_ReadMem (0x0000091E, 0x0002 Bytes, ...) -- CPU_ReadMem(64 bytes @ 0x00000900) -- Updating DA cache (64 bytes @ 0x00000900) -- Read from DA cache (2 bytes @ 0x0000091E) -- Data:  40 F2  returns 0x00 (0001ms, 0571ms total)
T1258 002:467 JLINK_ReadMem (0x00000920, 0x003C Bytes, ...) -- CPU_ReadMem(64 bytes @ 0x00000940) -- Updating DA cache (64 bytes @ 0x00000940) -- Read from DA cache (60 bytes @ 0x00000920) -- Data:  06 31 41 60 41 68 84 62 81 68 41 F0 01 01 81 60 ...  returns 0x00 (0001ms, 0573ms total)
T204C 020:916 JLINK_Step() -- Read from DA cache (2 bytes @ 0x0000091E) -- Not simulated -- CPU_WriteMem(4 bytes @ 0xE0002008) -- CPU_WriteMem(4 bytes @ 0xE000200C) -- CPU_WriteMem(4 bytes @ 0xE0002010) -- CPU_WriteMem(4 bytes @ 0xE0002014) -- CPU_WriteMem(4 bytes @ 0xE0002018) -- CPU_WriteMem(4 bytes @ 0xE000201C)  returns 0x00 (0009ms, 0574ms total)
T204C 020:925 JLINK_ReadReg(R15)  returns 0x00000922 (0000ms, 0583ms total)
T204C 020:925 JLINK_ReadReg(XPSR)  returns 0x41000000 (0000ms, 0583ms total)
T204C 020:925 JLINK_SetBPEx(Addr = 0x0000093C, Type = 0xFFFFFFF2)  returns 0x00000004 (0001ms, 0583ms total)
T204C 020:926 JLINK_SetBPEx(Addr = 0x0000091E, Type = 0xFFFFFFF2)  returns 0x00000005 (0000ms, 0584ms total)
T204C 020:926 JLINK_Go() -- CPU_WriteMem(4 bytes @ 0xE0002008) -- CPU_WriteMem(4 bytes @ 0xE000200C) -- CPU_WriteMem(4 bytes @ 0xE0002010) -- CPU_WriteMem(4 bytes @ 0xE0002014) -- CPU_WriteMem(4 bytes @ 0xE0002018) -- CPU_WriteMem(4 bytes @ 0xE000201C) (0005ms, 0584ms total)
T204C 021:031 JLINK_IsHalted()  returns FALSE (0000ms, 0589ms total)
T204C 021:132 JLINK_IsHalted()  returns FALSE (0000ms, 0589ms total)
T204C 021:232 JLINK_IsHalted()  returns FALSE (0000ms, 0589ms total)
T204C 021:332 JLINK_IsHalted()  returns FALSE (0000ms, 0589ms total)
T204C 021:432 JLINK_IsHalted()  returns FALSE (0000ms, 0589ms total)
T204C 021:532 JLINK_IsHalted()  returns FALSE (0000ms, 0589ms total)
T204C 021:632 JLINK_IsHalted()  returns FALSE (0000ms, 0589ms total)
T204C 021:732 JLINK_IsHalted()  returns FALSE (0000ms, 0589ms total)
T204C 021:832 JLINK_IsHalted()  returns FALSE (0000ms, 0589ms total)
T204C 021:932 JLINK_IsHalted()  returns FALSE (0001ms, 0589ms total)
T204C 022:033 JLINK_IsHalted()  returns FALSE (0000ms, 0589ms total)
T204C 022:133 JLINK_IsHalted()  returns FALSE (0000ms, 0589ms total)
T204C 022:233 JLINK_IsHalted()  returns FALSE (0000ms, 0589ms total)
T204C 022:333 JLINK_IsHalted()  returns FALSE (0000ms, 0589ms total)
T204C 022:433 JLINK_IsHalted()  returns FALSE (0000ms, 0589ms total)
T204C 022:533 JLINK_IsHalted()  returns FALSE (0000ms, 0589ms total)
T204C 022:633 JLINK_IsHalted()  returns FALSE (0000ms, 0589ms total)
T204C 022:733 JLINK_IsHalted()  returns FALSE (0000ms, 0589ms total)
T204C 022:833 JLINK_IsHalted()  returns FALSE (0000ms, 0589ms total)
T204C 022:933 JLINK_IsHalted()  returns FALSE (0000ms, 0589ms total)
T204C 023:033 JLINK_IsHalted()  returns FALSE (0000ms, 0589ms total)
T204C 023:133 JLINK_IsHalted()  returns FALSE (0000ms, 0589ms total)
T204C 023:233 JLINK_IsHalted()  returns FALSE (0000ms, 0589ms total)
T204C 023:333 JLINK_IsHalted()  returns FALSE (0000ms, 0589ms total)
T204C 023:433 JLINK_IsHalted()  returns FALSE (0000ms, 0589ms total)
T204C 023:533 JLINK_IsHalted()  returns FALSE (0000ms, 0589ms total)
T204C 023:633 JLINK_IsHalted()  returns FALSE (0000ms, 0589ms total)
T204C 023:733 JLINK_IsHalted()  returns FALSE (0000ms, 0589ms total)
T204C 023:833 JLINK_IsHalted()  returns FALSE (0000ms, 0589ms total)
T204C 023:933 JLINK_IsHalted()  returns FALSE (0000ms, 0589ms total)
T204C 024:033 JLINK_IsHalted()  returns FALSE (0001ms, 0589ms total)
T204C 024:134 JLINK_IsHalted()  returns FALSE (0000ms, 0589ms total)
T204C 024:234 JLINK_IsHalted()  returns FALSE (0000ms, 0589ms total)
T204C 024:334 JLINK_IsHalted()  returns FALSE (0000ms, 0589ms total)
T204C 024:434 JLINK_IsHalted()  returns FALSE (0000ms, 0589ms total)
T204C 024:534 JLINK_IsHalted()  returns FALSE (0000ms, 0589ms total)
T204C 024:634 JLINK_IsHalted()  returns FALSE (0000ms, 0589ms total)
T204C 024:734 JLINK_IsHalted()  returns FALSE (0000ms, 0589ms total)
T204C 024:834 JLINK_IsHalted()  returns FALSE (0000ms, 0589ms total)
T1258 024:876 JLINK_SetResetType(JLINKARM_RESET_TYPE_NORMAL)  returns JLINKARM_RESET_TYPE_NORMAL (0000ms, 0589ms total)
T1258 024:876 JLINK_ResetNoHalt() >0x108 TIF>Found SWD-DP with ID 0x2BA01477 >0x33 TIF> >0x33 TIF> >0x35 TIF> >0x33 TIF> >0x35 TIF> >0x33 TIF> >0x33 TIF> >0x35 TIF> >0x33 TIF> >0x33 TIF> >0x35 TIF> >0x33 TIF> >0x33 TIF> >0x35 TIF> >0x33 TIF> >0x33 TIF> >0x35 TIF> >0x35 TIF> >0x35 TIF> >0x35 TIF> >0x35 TIF> >0x33 TIF> >0x33 TIF> >0x35 TIF> >0x33 TIF> >0x33 TIF> >0x33 TIF>TPIU fitted. >0x35 TIF> >0x33 TIF> >0x33 TIF> >0x35 TIF> >0x33 TIF> >0x33 TIF>  FPUnit: 6 code (BP) slots and 2 literal slots >0x35 TIF>
 >0x33 TIF> >0x33 TIF> >0x35 TIF> >0x35 TIF> >0x35 TIF> >0x33 TIF> >0x33 TIF> >0x35 TIF> >0x33 TIF> >0x33 TIF> >0x35 TIF> >0x33 TIF> >0x33 TIF>Found Cortex-M3 r2p0, Little endian.
                JLINK_Reset() >0x108 TIF>Found SWD-DP with ID 0x2BA01477 >0x33 TIF> >0x33 TIF> >0x35 TIF> >0x33 TIF> >0x35 TIF> >0x33 TIF> >0x33 TIF> >0x35 TIF> >0x33 TIF> >0x33 TIF> >0x35 TIF> >0x33 TIF> >0x33 TIF> >0x35 TIF> >0x33 TIF> >0x33 TIF> >0x35 TIF> >0x35 TIF> >0x35 TIF> >0x35 TIF> >0x35 TIF> >0x33 TIF> >0x33 TIF> >0x35 TIF> >0x33 TIF> >0x33 TIF> >0x33 TIF>TPIU fitted. >0x35 TIF> >0x33 TIF> >0x33 TIF> >0x35 TIF> >0x33 TIF> >0x33 TIF>  FPUnit: 6 code (BP) slots and 2 literal slots >0x35 TIF>
 >0x33 TIF> >0x33 TIF> >0x35 TIF> >0x33 TIF> >0x33 TIF> >0x35 TIF> >0x33 TIF> >0x33 TIF> >0x35 TIF> >0x33 TIF> >0x33 TIF>Found Cortex-M3 r2p0, Little endian. -- CPU is running -- CPU_WriteMem(4 bytes @ 0xE000EDF0) -- CPU is running -- CPU_WriteMem(4 bytes @ 0xE000EDFC) >0x35 TIF> -- CPU is running -- CPU_WriteMem(4 bytes @ 0xE000ED0C) -- CPU is running -- CPU_ReadMem(4 bytes @ 0xE000EDF0) -- CPU is running -- CPU_ReadMem(4 bytes @ 0xE000EDF0) -- CPU is running -- CPU_WriteMem(4 bytes @ 0xE000EDF0)
 -- CPU is running -- CPU_WriteMem(4 bytes @ 0xE000EDFC) -- CPU is running -- CPU_ReadMem(4 bytes @ 0xE000EDF0) (0033ms, 0000ms total)
                JLINK_Go() -- CPU_WriteMem(4 bytes @ 0xE0002000) -- CPU_WriteMem(4 bytes @ 0xE0002008) -- CPU_WriteMem(4 bytes @ 0xE000200C) -- CPU_WriteMem(4 bytes @ 0xE0002010) -- CPU_WriteMem(4 bytes @ 0xE0002014) -- CPU_WriteMem(4 bytes @ 0xE0002018) -- CPU_WriteMem(4 bytes @ 0xE000201C) (0006ms, 0033ms total)
               (0059ms, 0589ms total)
T204C 024:935 JLINK_IsHalted()  returns FALSE (0001ms, 0648ms total)
T204C 025:036 JLINK_IsHalted()  returns TRUE (0004ms, 0648ms total)
T204C 025:040 JLINK_Halt()  returns 0x00 (0000ms, 0648ms total)
T204C 025:040 JLINK_IsHalted()  returns TRUE (0000ms, 0648ms total)
T204C 025:040 JLINK_IsHalted()  returns TRUE (0000ms, 0648ms total)
T204C 025:040 JLINK_IsHalted()  returns TRUE (0000ms, 0648ms total)
T204C 025:040 JLINK_ReadReg(R15)  returns 0x0000093C (0000ms, 0648ms total)
T204C 025:040 JLINK_ReadReg(XPSR)  returns 0x21000000 (0000ms, 0648ms total)
T204C 025:040 JLINK_ClrBPEx(BPHandle = 0x00000004)  returns 0x00 (0000ms, 0648ms total)
T204C 025:040 JLINK_ClrBPEx(BPHandle = 0x00000005)  returns 0x00 (0000ms, 0648ms total)
T204C 025:040 JLINK_ReadMemU32(0xE000ED30, 0x0001 Items, ...) -- CPU_ReadMem(4 bytes @ 0xE000ED30) -- Data:  03 00 00 00  returns 0x01 (0001ms, 0648ms total)
T204C 025:041 JLINK_ReadMemU32(0xE0001028, 0x0001 Items, ...) -- CPU_ReadMem(4 bytes @ 0xE0001028) -- Data:  01 00 00 40  returns 0x01 (0000ms, 0649ms total)
T204C 025:042 JLINK_ReadMemU32(0xE0001038, 0x0001 Items, ...) -- CPU_ReadMem(4 bytes @ 0xE0001038) -- Data:  01 00 00 40  returns 0x01 (0000ms, 0649ms total)
T204C 025:042 JLINK_ReadMemU32(0xE0001048, 0x0001 Items, ...) -- CPU_ReadMem(4 bytes @ 0xE0001048) -- Data:  01 00 00 40  returns 0x01 (0001ms, 0649ms total)
T204C 025:043 JLINK_ReadMemU32(0xE0001058, 0x0001 Items, ...) -- CPU_ReadMem(4 bytes @ 0xE0001058) -- Data:  01 00 00 40  returns 0x01 (0001ms, 0650ms total)
T204C 025:044 JLINK_ReadMem (0x0000093A, 0x0002 Bytes, ...) -- CPU_ReadMem(64 bytes @ 0x00000900) -- Updating DA cache (64 bytes @ 0x00000900) -- Read from DA cache (2 bytes @ 0x0000093A) -- Data:  80 C2  returns 0x00 (0001ms, 0651ms total)
T204C 025:046 JLINK_ReadMem (0x0000093C, 0x003C Bytes, ...) -- CPU_ReadMem(64 bytes @ 0x00000940) -- Updating DA cache (64 bytes @ 0x00000940) -- Read from DA cache (60 bytes @ 0x0000093C) -- Data:  C3 F8 00 C1 D3 6A 45 F2 50 5C 6F F3 0F 13 43 EA ...  returns 0x00 (0001ms, 0653ms total)
T204C 025:047 JLINK_SetBPEx(Addr = 0x00000940, Type = 0xFFFFFFF2)  returns 0x00000006 (0000ms, 0654ms total)
T204C 025:047 JLINK_SetBPEx(Addr = 0x0000091E, Type = 0xFFFFFFF2)  returns 0x00000007 (0000ms, 0654ms total)
T204C 025:047 JLINK_Go() -- CPU_WriteMem(4 bytes @ 0xE0002008) -- CPU_WriteMem(4 bytes @ 0xE000200C) -- CPU_WriteMem(4 bytes @ 0xE0002010) -- CPU_WriteMem(4 bytes @ 0xE0002014) -- CPU_WriteMem(4 bytes @ 0xE0002018) -- CPU_WriteMem(4 bytes @ 0xE000201C) (0005ms, 0654ms total)
T204C 025:152 JLINK_IsHalted()  returns TRUE (0003ms, 0659ms total)
T204C 025:155 JLINK_Halt()  returns 0x00 (0000ms, 0659ms total)
T204C 025:155 JLINK_IsHalted()  returns TRUE (0000ms, 0659ms total)
T204C 025:155 JLINK_IsHalted()  returns TRUE (0000ms, 0659ms total)
T204C 025:155 JLINK_IsHalted()  returns TRUE (0000ms, 0659ms total)
T204C 025:155 JLINK_ReadReg(R15)  returns 0x00000940 (0000ms, 0659ms total)
T204C 025:155 JLINK_ReadReg(XPSR)  returns 0x21000000 (0000ms, 0659ms total)
T204C 025:155 JLINK_ClrBPEx(BPHandle = 0x00000006)  returns 0x00 (0000ms, 0659ms total)
T204C 025:155 JLINK_ClrBPEx(BPHandle = 0x00000007)  returns 0x00 (0001ms, 0659ms total)
T204C 025:156 JLINK_ReadMemU32(0xE000ED30, 0x0001 Items, ...) -- CPU_ReadMem(4 bytes @ 0xE000ED30) -- Data:  03 00 00 00  returns 0x01 (0000ms, 0660ms total)
T204C 025:156 JLINK_ReadMemU32(0xE0001028, 0x0001 Items, ...) -- CPU_ReadMem(4 bytes @ 0xE0001028) -- Data:  01 00 00 40  returns 0x01 (0001ms, 0660ms total)
T204C 025:157 JLINK_ReadMemU32(0xE0001038, 0x0001 Items, ...) -- CPU_ReadMem(4 bytes @ 0xE0001038) -- Data:  01 00 00 40  returns 0x01 (0001ms, 0661ms total)
T204C 025:158 JLINK_ReadMemU32(0xE0001048, 0x0001 Items, ...) -- CPU_ReadMem(4 bytes @ 0xE0001048) -- Data:  01 00 00 40  returns 0x01 (0001ms, 0662ms total)
T204C 025:159 JLINK_ReadMemU32(0xE0001058, 0x0001 Items, ...) -- CPU_ReadMem(4 bytes @ 0xE0001058) -- Data:  01 00 00 40  returns 0x01 (0000ms, 0663ms total)
T204C 025:160 JLINK_ReadReg(R0)  returns 0x00000000 (0000ms, 0664ms total)
T204C 025:160 JLINK_ReadReg(R1)  returns 0x00000000 (0000ms, 0664ms total)
T204C 025:160 JLINK_ReadReg(R2)  returns 0x48060000 (0000ms, 0664ms total)
T204C 025:160 JLINK_ReadReg(R3)  returns 0xE000E000 (0000ms, 0664ms total)
T204C 025:160 JLINK_ReadReg(R4)  returns 0x00000001 (0000ms, 0664ms total)
T204C 025:160 JLINK_ReadReg(R5)  returns 0x20000478 (0000ms, 0664ms total)
T204C 025:160 JLINK_ReadReg(R6)  returns 0x00000000 (0000ms, 0664ms total)
T204C 025:160 JLINK_ReadReg(R7)  returns 0x00000000 (0000ms, 0664ms total)
T204C 025:160 JLINK_ReadReg(R8)  returns 0x00000000 (0000ms, 0664ms total)
T204C 025:160 JLINK_ReadReg(R9)  returns 0x00000000 (0000ms, 0664ms total)
T204C 025:160 JLINK_ReadReg(R10)  returns 0x000011F0 (0000ms, 0664ms total)
T204C 025:160 JLINK_ReadReg(R11)  returns 0x00000000 (0000ms, 0664ms total)
T204C 025:160 JLINK_ReadReg(R12)  returns 0x00000010 (0000ms, 0664ms total)
T204C 025:160 JLINK_ReadReg(R13)  returns 0x20000CAC (0000ms, 0664ms total)
T204C 025:160 JLINK_ReadReg(R14)  returns 0x00000B77 (0000ms, 0664ms total)
T204C 025:160 JLINK_ReadReg(R15)  returns 0x00000940 (0000ms, 0664ms total)
T204C 025:160 JLINK_ReadReg(XPSR)  returns 0x21000000 (0000ms, 0664ms total)
T204C 025:160 JLINK_ReadReg(MSP)  returns 0x20000CAC (0000ms, 0664ms total)
T204C 025:160 JLINK_ReadReg(PSP)  returns 0x00000000 (0000ms, 0664ms total)
T204C 025:160 JLINK_ReadReg(CFBP)  returns 0x00000000 (0000ms, 0664ms total)
T1258 025:161 JLINK_ReadMem (0x20000CAC, 0x0004 Bytes, ...) -- CPU_ReadMem(4 bytes @ 0x20000CAC) -- Data:  00 00 00 00  returns 0x00 (0000ms, 0664ms total)
T1258 025:161 JLINK_ReadMem (0x20000CD4, 0x0004 Bytes, ...) -- CPU_ReadMem(4 bytes @ 0x20000CD4) -- Data:  63 0B 00 00  returns 0x00 (0001ms, 0664ms total)
T1258 025:162 JLINK_ReadMem (0x20000CB0, 0x0004 Bytes, ...) -- CPU_ReadMem(4 bytes @ 0x20000CB0) -- Data:  00 00 00 00  returns 0x00 (0001ms, 0665ms total)
T1258 025:163 JLINK_ReadMem (0x20000CB4, 0x0004 Bytes, ...) -- CPU_ReadMem(4 bytes @ 0x20000CB4) -- Data:  78 04 00 20  returns 0x00 (0000ms, 0666ms total)
T1258 025:163 JLINK_ReadMem (0x20000CB8, 0x0004 Bytes, ...) -- CPU_ReadMem(4 bytes @ 0x20000CB8) -- Data:  00 00 00 00  returns 0x00 (0001ms, 0666ms total)
T1258 025:164 JLINK_ReadMem (0x20000CBC, 0x0004 Bytes, ...) -- CPU_ReadMem(4 bytes @ 0x20000CBC) -- Data:  00 00 00 00  returns 0x00 (0001ms, 0667ms total)
T1258 025:165 JLINK_ReadMem (0x20000CC0, 0x0004 Bytes, ...) -- CPU_ReadMem(4 bytes @ 0x20000CC0) -- Data:  00 00 00 00  returns 0x00 (0000ms, 0668ms total)
T1258 025:165 JLINK_ReadMem (0x20000CC4, 0x0004 Bytes, ...) -- CPU_ReadMem(4 bytes @ 0x20000CC4) -- Data:  00 00 00 00  returns 0x00 (0001ms, 0668ms total)
T1258 025:166 JLINK_ReadMem (0x20000CC8, 0x0004 Bytes, ...) -- CPU_ReadMem(4 bytes @ 0x20000CC8) -- Data:  F0 11 00 00  returns 0x00 (0001ms, 0669ms total)
T1258 025:167 JLINK_ReadMem (0x20000CCC, 0x0004 Bytes, ...) -- CPU_ReadMem(4 bytes @ 0x20000CCC) -- Data:  00 00 00 00  returns 0x00 (0000ms, 0670ms total)
T1258 025:167 JLINK_ReadMem (0x00000000, 0x0004 Bytes, ...) -- CPU_ReadMem(64 bytes @ 0x00000000) -- Updating DA cache (64 bytes @ 0x00000000) -- Read from DA cache (4 bytes @ 0x00000000) -- Data:  D8 0C 00 20  returns 0x00 (0001ms, 0670ms total)
T1258 025:168 JLINK_ReadMemU32(0xE0001004, 0x0001 Items, ...) -- CPU_ReadMem(4 bytes @ 0xE0001004) -- Data:  01 00 00 40  returns 0x01 (0001ms, 0671ms total)
T1258 025:172 JLINK_ReadMem (0x00000940, 0x003C Bytes, ...) -- CPU_ReadMem(64 bytes @ 0x00000940) -- Updating DA cache (64 bytes @ 0x00000940) -- Read from DA cache (60 bytes @ 0x00000940) -- Data:  D3 6A 45 F2 50 5C 6F F3 0F 13 43 EA 0C 03 D3 62 ...  returns 0x00 (0002ms, 0672ms total)
T204C 025:478 JLINK_SetBPEx(Addr = 0x0000091E, Type = 0xFFFFFFF2)  returns 0x00000008 (0000ms, 0674ms total)
T204C 025:478 JLINK_Go() -- CPU_WriteMem(4 bytes @ 0xE000200C) -- CPU_WriteMem(4 bytes @ 0xE0002008) -- CPU_WriteMem(4 bytes @ 0xE0002008) -- CPU_WriteMem(4 bytes @ 0xE000200C) -- CPU_WriteMem(4 bytes @ 0xE0002010) -- CPU_WriteMem(4 bytes @ 0xE0002014) -- CPU_WriteMem(4 bytes @ 0xE0002018) -- CPU_WriteMem(4 bytes @ 0xE000201C) (0006ms, 0674ms total)
T204C 025:584 JLINK_IsHalted()  returns TRUE (0003ms, 0680ms total)
T204C 025:587 JLINK_Halt()  returns 0x00 (0000ms, 0680ms total)
T204C 025:587 JLINK_IsHalted()  returns TRUE (0000ms, 0680ms total)
T204C 025:587 JLINK_IsHalted()  returns TRUE (0000ms, 0680ms total)
T204C 025:587 JLINK_IsHalted()  returns TRUE (0000ms, 0680ms total)
T204C 025:587 JLINK_ReadReg(R15)  returns 0x0000091E (0000ms, 0680ms total)
T204C 025:587 JLINK_ReadReg(XPSR)  returns 0x41000000 (0000ms, 0680ms total)
T204C 025:587 JLINK_ClrBPEx(BPHandle = 0x00000008)  returns 0x00 (0000ms, 0680ms total)
T204C 025:587 JLINK_ReadMemU32(0xE000ED30, 0x0001 Items, ...) -- CPU_ReadMem(4 bytes @ 0xE000ED30) -- Data:  03 00 00 00  returns 0x01 (0001ms, 0680ms total)
T204C 025:588 JLINK_ReadMemU32(0xE0001028, 0x0001 Items, ...) -- CPU_ReadMem(4 bytes @ 0xE0001028) -- Data:  01 00 00 40  returns 0x01 (0001ms, 0681ms total)
T204C 025:589 JLINK_ReadMemU32(0xE0001038, 0x0001 Items, ...) -- CPU_ReadMem(4 bytes @ 0xE0001038) -- Data:  01 00 00 40  returns 0x01 (0000ms, 0682ms total)
T204C 025:589 JLINK_ReadMemU32(0xE0001048, 0x0001 Items, ...) -- CPU_ReadMem(4 bytes @ 0xE0001048) -- Data:  01 00 00 40  returns 0x01 (0001ms, 0682ms total)
T204C 025:590 JLINK_ReadMemU32(0xE0001058, 0x0001 Items, ...) -- CPU_ReadMem(4 bytes @ 0xE0001058) -- Data:  01 00 00 40  returns 0x01 (0000ms, 0683ms total)
T204C 025:590 JLINK_ReadReg(R0)  returns 0x40060000 (0000ms, 0683ms total)
T204C 025:590 JLINK_ReadReg(R1)  returns 0x40060000 (0000ms, 0683ms total)
T204C 025:590 JLINK_ReadReg(R2)  returns 0x00000000 (0001ms, 0683ms total)
T204C 025:591 JLINK_ReadReg(R3)  returns 0x01555555 (0000ms, 0684ms total)
T204C 025:591 JLINK_ReadReg(R4)  returns 0x00000001 (0000ms, 0684ms total)
T204C 025:591 JLINK_ReadReg(R5)  returns 0x20000478 (0000ms, 0684ms total)
T204C 025:591 JLINK_ReadReg(R6)  returns 0x00000000 (0000ms, 0684ms total)
T204C 025:591 JLINK_ReadReg(R7)  returns 0x00000000 (0000ms, 0684ms total)
T204C 025:591 JLINK_ReadReg(R8)  returns 0x00000000 (0000ms, 0684ms total)
T204C 025:591 JLINK_ReadReg(R9)  returns 0x00000000 (0000ms, 0684ms total)
T204C 025:591 JLINK_ReadReg(R10)  returns 0x000011F0 (0000ms, 0684ms total)
T204C 025:591 JLINK_ReadReg(R11)  returns 0x00000000 (0000ms, 0684ms total)
T204C 025:591 JLINK_ReadReg(R12)  returns 0x00005550 (0000ms, 0684ms total)
T204C 025:591 JLINK_ReadReg(R13)  returns 0x20000CAC (0000ms, 0684ms total)
T204C 025:591 JLINK_ReadReg(R14)  returns 0x00000B77 (0000ms, 0684ms total)
T204C 025:591 JLINK_ReadReg(R15)  returns 0x0000091E (0000ms, 0684ms total)
T204C 025:591 JLINK_ReadReg(XPSR)  returns 0x41000000 (0000ms, 0684ms total)
T204C 025:591 JLINK_ReadReg(MSP)  returns 0x20000CAC (0000ms, 0684ms total)
T204C 025:591 JLINK_ReadReg(PSP)  returns 0x00000000 (0000ms, 0684ms total)
T204C 025:591 JLINK_ReadReg(CFBP)  returns 0x00000000 (0000ms, 0684ms total)
T1258 025:591 JLINK_ReadMem (0x20000CAC, 0x0004 Bytes, ...) -- CPU_ReadMem(4 bytes @ 0x20000CAC) -- Data:  00 00 00 00  returns 0x00 (0000ms, 0684ms total)
T1258 025:591 JLINK_ReadMem (0x20000CD4, 0x0004 Bytes, ...) -- CPU_ReadMem(4 bytes @ 0x20000CD4) -- Data:  63 0B 00 00  returns 0x00 (0001ms, 0684ms total)
T1258 025:592 JLINK_ReadMem (0x20000CB0, 0x0004 Bytes, ...) -- CPU_ReadMem(4 bytes @ 0x20000CB0) -- Data:  00 00 00 00  returns 0x00 (0001ms, 0685ms total)
T1258 025:593 JLINK_ReadMem (0x20000CB4, 0x0004 Bytes, ...) -- CPU_ReadMem(4 bytes @ 0x20000CB4) -- Data:  78 04 00 20  returns 0x00 (0001ms, 0686ms total)
T1258 025:594 JLINK_ReadMem (0x20000CB8, 0x0004 Bytes, ...) -- CPU_ReadMem(4 bytes @ 0x20000CB8) -- Data:  00 00 00 00  returns 0x00 (0000ms, 0687ms total)
T1258 025:594 JLINK_ReadMem (0x20000CBC, 0x0004 Bytes, ...) -- CPU_ReadMem(4 bytes @ 0x20000CBC) -- Data:  00 00 00 00  returns 0x00 (0001ms, 0687ms total)
T1258 025:595 JLINK_ReadMem (0x20000CC0, 0x0004 Bytes, ...) -- CPU_ReadMem(4 bytes @ 0x20000CC0) -- Data:  00 00 00 00  returns 0x00 (0001ms, 0688ms total)
T1258 025:596 JLINK_ReadMem (0x20000CC4, 0x0004 Bytes, ...) -- CPU_ReadMem(4 bytes @ 0x20000CC4) -- Data:  00 00 00 00  returns 0x00 (0000ms, 0689ms total)
T1258 025:596 JLINK_ReadMem (0x20000CC8, 0x0004 Bytes, ...) -- CPU_ReadMem(4 bytes @ 0x20000CC8) -- Data:  F0 11 00 00  returns 0x00 (0001ms, 0689ms total)
T1258 025:597 JLINK_ReadMem (0x20000CCC, 0x0004 Bytes, ...) -- CPU_ReadMem(4 bytes @ 0x20000CCC) -- Data:  00 00 00 00  returns 0x00 (0000ms, 0690ms total)
T1258 025:597 JLINK_ReadMem (0x00000000, 0x0001 Bytes, ...) -- CPU_ReadMem(64 bytes @ 0x00000000) -- Updating DA cache (64 bytes @ 0x00000000) -- Read from DA cache (1 bytes @ 0x00000000) -- Data:  D8  returns 0x00 (0002ms, 0690ms total)
T1258 025:599 JLINK_ReadMem (0x00000000, 0x0004 Bytes, ...) -- Read from DA cache (4 bytes @ 0x00000000) -- Data:  D8 0C 00 20  returns 0x00 (0000ms, 0692ms total)
T1258 025:599 JLINK_ReadMemU32(0xE0001004, 0x0001 Items, ...) -- CPU_ReadMem(4 bytes @ 0xE0001004) -- Data:  01 00 00 40  returns 0x01 (0000ms, 0692ms total)
T1258 025:603 JLINK_ReadMem (0x0000091E, 0x0002 Bytes, ...) -- CPU_ReadMem(64 bytes @ 0x00000900) -- Updating DA cache (64 bytes @ 0x00000900) -- Read from DA cache (2 bytes @ 0x0000091E) -- Data:  40 F2  returns 0x00 (0001ms, 0692ms total)
T1258 025:604 JLINK_ReadMem (0x00000920, 0x003C Bytes, ...) -- CPU_ReadMem(64 bytes @ 0x00000940) -- Updating DA cache (64 bytes @ 0x00000940) -- Read from DA cache (60 bytes @ 0x00000920) -- Data:  06 31 41 60 41 68 84 62 81 68 41 F0 01 01 81 60 ...  returns 0x00 (0002ms, 0693ms total)
T204C 030:742 JLINK_Step() -- Read from DA cache (2 bytes @ 0x0000091E) -- Not simulated -- CPU_WriteMem(4 bytes @ 0xE0002008) -- CPU_WriteMem(4 bytes @ 0xE000200C) -- CPU_WriteMem(4 bytes @ 0xE0002010) -- CPU_WriteMem(4 bytes @ 0xE0002014) -- CPU_WriteMem(4 bytes @ 0xE0002018) -- CPU_WriteMem(4 bytes @ 0xE000201C)  returns 0x00 (0009ms, 0695ms total)
T204C 030:751 JLINK_ReadReg(R15)  returns 0x00000922 (0000ms, 0704ms total)
T204C 030:751 JLINK_ReadReg(XPSR)  returns 0x41000000 (0000ms, 0704ms total)
T204C 030:751 JLINK_Step() -- CPU_ReadMem(64 bytes @ 0x00000900) -- Updating DA cache (64 bytes @ 0x00000900) -- Read from DA cache (2 bytes @ 0x00000922) -- Not simulated -- CPU_WriteMem(4 bytes @ 0xE0002008) -- CPU_WriteMem(4 bytes @ 0xE000200C) -- CPU_WriteMem(4 bytes @ 0xE0002010) -- CPU_WriteMem(4 bytes @ 0xE0002014) -- CPU_WriteMem(4 bytes @ 0xE0002018) -- CPU_WriteMem(4 bytes @ 0xE000201C)  returns 0x00 (0009ms, 0704ms total)
T204C 030:760 JLINK_ReadReg(R15)  returns 0x00000924 (0000ms, 0713ms total)
T204C 030:760 JLINK_ReadReg(XPSR)  returns 0x41000000 (0000ms, 0713ms total)
T204C 030:760 JLINK_ReadReg(R0)  returns 0x40060000 (0000ms, 0713ms total)
T204C 030:760 JLINK_ReadReg(R1)  returns 0x00000306 (0000ms, 0713ms total)
T204C 030:760 JLINK_ReadReg(R2)  returns 0x00000000 (0000ms, 0713ms total)
T204C 030:760 JLINK_ReadReg(R3)  returns 0x01555555 (0000ms, 0713ms total)
T204C 030:760 JLINK_ReadReg(R4)  returns 0x00000001 (0000ms, 0713ms total)
T204C 030:760 JLINK_ReadReg(R5)  returns 0x20000478 (0000ms, 0713ms total)
T204C 030:760 JLINK_ReadReg(R6)  returns 0x00000000 (0000ms, 0713ms total)
T204C 030:760 JLINK_ReadReg(R7)  returns 0x00000000 (0000ms, 0713ms total)
T204C 030:760 JLINK_ReadReg(R8)  returns 0x00000000 (0000ms, 0713ms total)
T204C 030:760 JLINK_ReadReg(R9)  returns 0x00000000 (0000ms, 0713ms total)
T204C 030:760 JLINK_ReadReg(R10)  returns 0x000011F0 (0000ms, 0713ms total)
T204C 030:760 JLINK_ReadReg(R11)  returns 0x00000000 (0000ms, 0713ms total)
T204C 030:760 JLINK_ReadReg(R12)  returns 0x00005550 (0000ms, 0713ms total)
T204C 030:760 JLINK_ReadReg(R13)  returns 0x20000CAC (0000ms, 0713ms total)
T204C 030:761 JLINK_ReadReg(R14)  returns 0x00000B77 (0000ms, 0713ms total)
T204C 030:761 JLINK_ReadReg(R15)  returns 0x00000924 (0000ms, 0713ms total)
T204C 030:761 JLINK_ReadReg(XPSR)  returns 0x41000000 (0000ms, 0713ms total)
T204C 030:761 JLINK_ReadReg(MSP)  returns 0x20000CAC (0000ms, 0713ms total)
T204C 030:761 JLINK_ReadReg(PSP)  returns 0x00000000 (0000ms, 0713ms total)
T204C 030:761 JLINK_ReadReg(CFBP)  returns 0x00000000 (0000ms, 0713ms total)
T1258 030:761 JLINK_ReadMem (0x20000CAC, 0x0004 Bytes, ...) -- CPU_ReadMem(4 bytes @ 0x20000CAC) -- Data:  00 00 00 00  returns 0x00 (0000ms, 0713ms total)
T1258 030:761 JLINK_ReadMem (0x20000CD4, 0x0004 Bytes, ...) -- CPU_ReadMem(4 bytes @ 0x20000CD4) -- Data:  63 0B 00 00  returns 0x00 (0001ms, 0713ms total)
T1258 030:762 JLINK_ReadMem (0x20000CB0, 0x0004 Bytes, ...) -- CPU_ReadMem(4 bytes @ 0x20000CB0) -- Data:  00 00 00 00  returns 0x00 (0001ms, 0714ms total)
T1258 030:763 JLINK_ReadMem (0x20000CB4, 0x0004 Bytes, ...) -- CPU_ReadMem(4 bytes @ 0x20000CB4) -- Data:  78 04 00 20  returns 0x00 (0001ms, 0715ms total)
T1258 030:764 JLINK_ReadMem (0x20000CB8, 0x0004 Bytes, ...) -- CPU_ReadMem(4 bytes @ 0x20000CB8) -- Data:  00 00 00 00  returns 0x00 (0000ms, 0716ms total)
T1258 030:764 JLINK_ReadMem (0x20000CBC, 0x0004 Bytes, ...) -- CPU_ReadMem(4 bytes @ 0x20000CBC) -- Data:  00 00 00 00  returns 0x00 (0001ms, 0716ms total)
T1258 030:765 JLINK_ReadMem (0x20000CC0, 0x0004 Bytes, ...) -- CPU_ReadMem(4 bytes @ 0x20000CC0) -- Data:  00 00 00 00  returns 0x00 (0000ms, 0717ms total)
T1258 030:765 JLINK_ReadMem (0x20000CC4, 0x0004 Bytes, ...) -- CPU_ReadMem(4 bytes @ 0x20000CC4) -- Data:  00 00 00 00  returns 0x00 (0001ms, 0717ms total)
T1258 030:766 JLINK_ReadMem (0x20000CC8, 0x0004 Bytes, ...) -- CPU_ReadMem(4 bytes @ 0x20000CC8) -- Data:  F0 11 00 00  returns 0x00 (0001ms, 0718ms total)
T1258 030:767 JLINK_ReadMem (0x20000CCC, 0x0004 Bytes, ...) -- CPU_ReadMem(4 bytes @ 0x20000CCC) -- Data:  00 00 00 00  returns 0x00 (0000ms, 0719ms total)
T1258 030:767 JLINK_ReadMem (0x00000000, 0x0001 Bytes, ...) -- CPU_ReadMem(64 bytes @ 0x00000000) -- Updating DA cache (64 bytes @ 0x00000000) -- Read from DA cache (1 bytes @ 0x00000000) -- Data:  D8  returns 0x00 (0002ms, 0719ms total)
T1258 030:769 JLINK_ReadMem (0x00000000, 0x0004 Bytes, ...) -- Read from DA cache (4 bytes @ 0x00000000) -- Data:  D8 0C 00 20  returns 0x00 (0000ms, 0721ms total)
T1258 030:769 JLINK_ReadMemU32(0xE0001004, 0x0001 Items, ...) -- CPU_ReadMem(4 bytes @ 0xE0001004) -- Data:  01 00 00 40  returns 0x01 (0000ms, 0721ms total)
T204C 032:556 JLINK_ReadMem (0x00000924, 0x003C Bytes, ...) -- CPU_ReadMem(128 bytes @ 0x00000900) -- Updating DA cache (128 bytes @ 0x00000900) -- Read from DA cache (60 bytes @ 0x00000924) -- Data:  41 68 84 62 81 68 41 F0 01 01 81 60 10 BC 70 47 ...  returns 0x00 (0002ms, 0721ms total)
T204C 032:558 JLINK_Step() -- Read from DA cache (2 bytes @ 0x00000924) -- Not simulated -- CPU_WriteMem(4 bytes @ 0xE0002008) -- CPU_WriteMem(4 bytes @ 0xE000200C) -- CPU_WriteMem(4 bytes @ 0xE0002010) -- CPU_WriteMem(4 bytes @ 0xE0002014) -- CPU_WriteMem(4 bytes @ 0xE0002018) -- CPU_WriteMem(4 bytes @ 0xE000201C)  returns 0x00 (0009ms, 0723ms total)
T204C 032:567 JLINK_ReadReg(R15)  returns 0x00000926 (0000ms, 0732ms total)
T204C 032:567 JLINK_ReadReg(XPSR)  returns 0x41000000 (0000ms, 0732ms total)
T204C 032:567 JLINK_ReadReg(R0)  returns 0x40060000 (0000ms, 0732ms total)
T204C 032:567 JLINK_ReadReg(R1)  returns 0x00000306 (0000ms, 0732ms total)
T204C 032:567 JLINK_ReadReg(R2)  returns 0x00000000 (0000ms, 0732ms total)
T204C 032:567 JLINK_ReadReg(R3)  returns 0x01555555 (0000ms, 0732ms total)
T204C 032:567 JLINK_ReadReg(R4)  returns 0x00000001 (0000ms, 0732ms total)
T204C 032:567 JLINK_ReadReg(R5)  returns 0x20000478 (0000ms, 0732ms total)
T204C 032:567 JLINK_ReadReg(R6)  returns 0x00000000 (0000ms, 0732ms total)
T204C 032:567 JLINK_ReadReg(R7)  returns 0x00000000 (0000ms, 0732ms total)
T204C 032:567 JLINK_ReadReg(R8)  returns 0x00000000 (0000ms, 0732ms total)
T204C 032:567 JLINK_ReadReg(R9)  returns 0x00000000 (0000ms, 0732ms total)
T204C 032:567 JLINK_ReadReg(R10)  returns 0x000011F0 (0000ms, 0732ms total)
T204C 032:567 JLINK_ReadReg(R11)  returns 0x00000000 (0000ms, 0732ms total)
T204C 032:567 JLINK_ReadReg(R12)  returns 0x00005550 (0000ms, 0732ms total)
T204C 032:567 JLINK_ReadReg(R13)  returns 0x20000CAC (0000ms, 0732ms total)
T204C 032:567 JLINK_ReadReg(R14)  returns 0x00000B77 (0000ms, 0732ms total)
T204C 032:567 JLINK_ReadReg(R15)  returns 0x00000926 (0000ms, 0732ms total)
T204C 032:567 JLINK_ReadReg(XPSR)  returns 0x41000000 (0000ms, 0732ms total)
T204C 032:567 JLINK_ReadReg(MSP)  returns 0x20000CAC (0000ms, 0732ms total)
T204C 032:567 JLINK_ReadReg(PSP)  returns 0x00000000 (0000ms, 0732ms total)
T204C 032:568 JLINK_ReadReg(CFBP)  returns 0x00000000 (0000ms, 0733ms total)
T1258 032:568 JLINK_ReadMem (0x20000CAC, 0x0004 Bytes, ...) -- CPU_ReadMem(4 bytes @ 0x20000CAC) -- Data:  00 00 00 00  returns 0x00 (0000ms, 0733ms total)
T1258 032:568 JLINK_ReadMem (0x20000CD4, 0x0004 Bytes, ...) -- CPU_ReadMem(4 bytes @ 0x20000CD4) -- Data:  63 0B 00 00  returns 0x00 (0001ms, 0733ms total)
T1258 032:569 JLINK_ReadMem (0x20000CB0, 0x0004 Bytes, ...) -- CPU_ReadMem(4 bytes @ 0x20000CB0) -- Data:  00 00 00 00  returns 0x00 (0001ms, 0734ms total)
T1258 032:570 JLINK_ReadMem (0x20000CB4, 0x0004 Bytes, ...) -- CPU_ReadMem(4 bytes @ 0x20000CB4) -- Data:  78 04 00 20  returns 0x00 (0001ms, 0735ms total)
T1258 032:571 JLINK_ReadMem (0x20000CB8, 0x0004 Bytes, ...) -- CPU_ReadMem(4 bytes @ 0x20000CB8) -- Data:  00 00 00 00  returns 0x00 (0000ms, 0736ms total)
T1258 032:571 JLINK_ReadMem (0x20000CBC, 0x0004 Bytes, ...) -- CPU_ReadMem(4 bytes @ 0x20000CBC) -- Data:  00 00 00 00  returns 0x00 (0001ms, 0736ms total)
T1258 032:572 JLINK_ReadMem (0x20000CC0, 0x0004 Bytes, ...) -- CPU_ReadMem(4 bytes @ 0x20000CC0) -- Data:  00 00 00 00  returns 0x00 (0000ms, 0737ms total)
T1258 032:572 JLINK_ReadMem (0x20000CC4, 0x0004 Bytes, ...) -- CPU_ReadMem(4 bytes @ 0x20000CC4) -- Data:  00 00 00 00  returns 0x00 (0001ms, 0737ms total)
T1258 032:573 JLINK_ReadMem (0x20000CC8, 0x0004 Bytes, ...) -- CPU_ReadMem(4 bytes @ 0x20000CC8) -- Data:  F0 11 00 00  returns 0x00 (0001ms, 0738ms total)
T1258 032:574 JLINK_ReadMem (0x20000CCC, 0x0004 Bytes, ...) -- CPU_ReadMem(4 bytes @ 0x20000CCC) -- Data:  00 00 00 00  returns 0x00 (0000ms, 0739ms total)
T1258 032:574 JLINK_ReadMem (0x00000000, 0x0001 Bytes, ...) -- CPU_ReadMem(64 bytes @ 0x00000000) -- Updating DA cache (64 bytes @ 0x00000000) -- Read from DA cache (1 bytes @ 0x00000000) -- Data:  D8  returns 0x00 (0002ms, 0739ms total)
T1258 032:576 JLINK_ReadMem (0x00000000, 0x0004 Bytes, ...) -- Read from DA cache (4 bytes @ 0x00000000) -- Data:  D8 0C 00 20  returns 0x00 (0000ms, 0741ms total)
T1258 032:576 JLINK_ReadMemU32(0xE0001004, 0x0001 Items, ...) -- CPU_ReadMem(4 bytes @ 0xE0001004) -- Data:  01 00 00 40  returns 0x01 (0000ms, 0741ms total)
T204C 033:037 JLINK_ReadMem (0x00000926, 0x0002 Bytes, ...) -- CPU_ReadMem(64 bytes @ 0x00000900) -- Updating DA cache (64 bytes @ 0x00000900) -- Read from DA cache (2 bytes @ 0x00000926) -- Data:  84 62  returns 0x00 (0002ms, 0741ms total)
T204C 033:039 JLINK_ReadMem (0x00000928, 0x003C Bytes, ...) -- CPU_ReadMem(64 bytes @ 0x00000940) -- Updating DA cache (64 bytes @ 0x00000940) -- Read from DA cache (60 bytes @ 0x00000928) -- Data:  81 68 41 F0 01 01 81 60 10 BC 70 47 4F F0 10 0C ...  returns 0x00 (0001ms, 0743ms total)
T204C 033:040 JLINK_Step() -- Read from DA cache (2 bytes @ 0x00000926) -- Not simulated -- CPU_WriteMem(4 bytes @ 0xE0002008) -- CPU_WriteMem(4 bytes @ 0xE000200C) -- CPU_WriteMem(4 bytes @ 0xE0002010) -- CPU_WriteMem(4 bytes @ 0xE0002014) -- CPU_WriteMem(4 bytes @ 0xE0002018) -- CPU_WriteMem(4 bytes @ 0xE000201C)  returns 0x00 (0008ms, 0744ms total)
T204C 033:048 JLINK_ReadReg(R15)  returns 0x00000928 (0000ms, 0752ms total)
T204C 033:048 JLINK_ReadReg(XPSR)  returns 0x41000000 (0000ms, 0752ms total)
T204C 033:048 JLINK_ReadReg(R0)  returns 0x40060000 (0000ms, 0752ms total)
T204C 033:048 JLINK_ReadReg(R1)  returns 0x00000306 (0000ms, 0752ms total)
T204C 033:048 JLINK_ReadReg(R2)  returns 0x00000000 (0000ms, 0752ms total)
T204C 033:048 JLINK_ReadReg(R3)  returns 0x01555555 (0000ms, 0752ms total)
T204C 033:048 JLINK_ReadReg(R4)  returns 0x00000001 (0000ms, 0752ms total)
T204C 033:048 JLINK_ReadReg(R5)  returns 0x20000478 (0000ms, 0752ms total)
T204C 033:048 JLINK_ReadReg(R6)  returns 0x00000000 (0000ms, 0752ms total)
T204C 033:048 JLINK_ReadReg(R7)  returns 0x00000000 (0000ms, 0752ms total)
T204C 033:048 JLINK_ReadReg(R8)  returns 0x00000000 (0000ms, 0752ms total)
T204C 033:048 JLINK_ReadReg(R9)  returns 0x00000000 (0000ms, 0752ms total)
T204C 033:048 JLINK_ReadReg(R10)  returns 0x000011F0 (0000ms, 0752ms total)
T204C 033:048 JLINK_ReadReg(R11)  returns 0x00000000 (0000ms, 0752ms total)
T204C 033:048 JLINK_ReadReg(R12)  returns 0x00005550 (0000ms, 0752ms total)
T204C 033:048 JLINK_ReadReg(R13)  returns 0x20000CAC (0000ms, 0752ms total)
T204C 033:048 JLINK_ReadReg(R14)  returns 0x00000B77 (0000ms, 0752ms total)
T204C 033:048 JLINK_ReadReg(R15)  returns 0x00000928 (0000ms, 0752ms total)
T204C 033:048 JLINK_ReadReg(XPSR)  returns 0x41000000 (0000ms, 0752ms total)
T204C 033:048 JLINK_ReadReg(MSP)  returns 0x20000CAC (0001ms, 0752ms total)
T204C 033:049 JLINK_ReadReg(PSP)  returns 0x00000000 (0000ms, 0753ms total)
T204C 033:049 JLINK_ReadReg(CFBP)  returns 0x00000000 (0000ms, 0753ms total)
T1258 033:049 JLINK_ReadMem (0x20000CAC, 0x0004 Bytes, ...) -- CPU_ReadMem(4 bytes @ 0x20000CAC) -- Data:  00 00 00 00  returns 0x00 (0000ms, 0753ms total)
T1258 033:049 JLINK_ReadMem (0x20000CD4, 0x0004 Bytes, ...) -- CPU_ReadMem(4 bytes @ 0x20000CD4) -- Data:  63 0B 00 00  returns 0x00 (0001ms, 0753ms total)
T1258 033:050 JLINK_ReadMem (0x20000CB0, 0x0004 Bytes, ...) -- CPU_ReadMem(4 bytes @ 0x20000CB0) -- Data:  00 00 00 00  returns 0x00 (0001ms, 0754ms total)
T1258 033:051 JLINK_ReadMem (0x20000CB4, 0x0004 Bytes, ...) -- CPU_ReadMem(4 bytes @ 0x20000CB4) -- Data:  78 04 00 20  returns 0x00 (0000ms, 0755ms total)
